
T58F4 000:877 SEGGER J-Link V4.15n (beta) Log File (0000ms, 0876ms total)
T58F4 000:877 DLL Compiled: Jun 18 2010 19:55:09 (0000ms, 0876ms total)
T58F4 000:877 Logging started @ 2017-05-20 14:26 (0000ms, 0876ms total)
T58F4 000:877 JLINK_SetWarnOutHandler(...) (0000ms, 0876ms total)
T58F4 000:877 JLINK_OpenEx(...)
Firmware: J-Link ARM-OB STM32 compiled Dec 15 2010 11:30:03
Hardware: V7.00
S/N: 20090928
Feature(s): RDI,FlashDL,FlashBP,JFlash,GDBFull  returns O.K. (0263ms, 0876ms total)
T58F4 001:140 JLINK_SetErrorOutHandler(...) (0000ms, 1139ms total)
T58F4 001:140 JLINK_ExecCommand("ProjectFile = "E:\STM32_EXAMPLES\LED\usr\JLinkSettings.ini"", ...)  returns 0x00 (0000ms, 1139ms total)
T58F4 001:140 JLINK_ExecCommand("DisableConnectionTimeout", ...)  returns 0x00 (0000ms, 1139ms total)
T58F4 001:140 JLINK_TIF_Select(JLINKARM_TIF_SWD)  returns 0x00 (0001ms, 1139ms total)
T58F4 001:142 JLINK_SetSpeed(5000) (0000ms, 1140ms total)
T58F4 001:142 JLINK_GetHardwareVersion()  returns 0x11170 (0000ms, 1140ms total)
T58F4 001:142 JLINK_GetDLLVersion()  returns 41514 (0000ms, 1140ms total)
T58F4 001:142 JLINK_GetFirmwareString(...) (0000ms, 1140ms total)
T58F4 001:152 JLINK_GetDLLVersion()  returns 41514 (0000ms, 1140ms total)
T58F4 001:152 JLINK_GetCompileDateTime() (0000ms, 1140ms total)
T58F4 001:153 JLINK_GetFirmwareString(...) (0000ms, 1140ms total)
T58F4 001:153 JLINK_GetHardwareVersion()  returns 0x11170 (0000ms, 1140ms total)
T58F4 001:154 JLINK_Reset() >0x108 TIF>Found SWD-DP with ID 0x1BA01477 >0x33 TIF> >0x33 TIF> >0x35 TIF> >0x33 TIF> >0x35 TIF> >0x33 TIF> >0x33 TIF> >0x9B TIF> >0x9B TIF> >0x1D7 TIF> >0x13A TIF> >0x13A TIF>TPIU fitted. >0x13A TIF>ETM fitted. >0x13A TIF>  FPUnit: 6 code (BP) slots and 2 literal slots >0x13A TIF> >0x13A TIF> (0033ms, 1140ms total)
T58F4 001:187 JLINK_JTAG_StoreRaw(..., 0x108 Bits)  returns 0x00 (0001ms, 1173ms total)
T58F4 001:188 JLINK_JTAG_GetU32(BitPos = 227) >0x108 TIF>  returns 0x1BA01477 (0000ms, 1174ms total)
T58F4 001:188 JLINK_GetDebugInfo(0x100) -- Value=0xE00FF003  returns 0x00 (0001ms, 1174ms total)
T58F4 001:190 JLINK_ReadMem (0xE00FF000, 0x0018 Bytes, ...) -- CPU_ReadMem(24 bytes @ 0xE00FF000) -- Data:  03 F0 F0 FF 03 20 F0 FF 03 30 F0 FF 03 10 F0 FF ...  returns 0x00 (0001ms, 1175ms total)
T58F4 001:191 JLINK_ReadMemU32(0xE000ED00, 0x0001 Items, ...) -- CPU_ReadMem(4 bytes @ 0xE000ED00) -- Data:  31 C2 1F 41  returns 0x01 (0001ms, 1176ms total)
T58F4 001:192 JLINK_Halt()  returns 0x00 (0000ms, 1177ms total)
T58F4 001:192 JLINK_IsHalted()  returns TRUE (0000ms, 1177ms total)
T58F4 001:192 JLINK_ReadMemU32(0xE000EDF0, 0x0001 Items, ...) -- CPU_ReadMem(4 bytes @ 0xE000EDF0) -- Data:  03 00 03 00  returns 0x01 (0001ms, 1177ms total)
T58F4 001:193 JLINK_WriteU32(0xE000EDF0, 0xA05F0003) -- CPU_WriteMem(4 bytes @ 0xE000EDF0)  returns 0x00 (0001ms, 1178ms total)
T58F4 001:194 JLINK_WriteU32(0xE000EDFC, 0x01000000) -- CPU_WriteMem(4 bytes @ 0xE000EDFC)  returns 0x00 (0001ms, 1179ms total)
T58F4 001:195 JLINK_ReadMemU32(0xE0002000, 0x0001 Items, ...) -- CPU_ReadMem(4 bytes @ 0xE0002000) -- Data:  60 02 00 00  returns 0x01 (0001ms, 1180ms total)
T58F4 001:196 JLINK_ReadMemU32(0xE0001000, 0x0001 Items, ...) -- CPU_ReadMem(4 bytes @ 0xE0001000) -- Data:  01 00 00 40  returns 0x01 (0001ms, 1181ms total)
T58F4 001:199 JLINK_ExecCommand("Device = STM32F103RC", ...)
                JLINK_ExecCommand("map ram 0x20000000 - 0x2000BFFF", ...)  returns 0x00 (0000ms, 0000ms total)
                JLINK_AddMirrorAreaEx(Addr = 0x00000000, Size = 0x00000000) (0000ms, 0000ms total)
                returns 0x00 (0000ms, 1182ms total)
T58F4 001:199 JLINK_GetHWStatus(...)  returns 0x00 (0001ms, 1182ms total)
T58F4 001:200 JLINK_GetNumBPUnits(Type = 0xFFFFFF00) >0x108 TIF>Found SWD-DP with ID 0x1BA01477 >0x33 TIF> >0x33 TIF> >0x35 TIF> >0x33 TIF> >0x35 TIF> >0x33 TIF> >0x33 TIF> >0x9B TIF> >0x9B TIF> >0x1D7 TIF> >0x13A TIF> >0x13A TIF>TPIU fitted. >0x13A TIF>ETM fitted. >0x13A TIF>  FPUnit: 6 code (BP) slots and 2 literal slots >0x13A TIF> >0x13A TIF>  returns 0x06 (0015ms, 1183ms total)
T58F4 001:215 JLINK_GetNumBPUnits(Type = 0xF0)  returns 0x800 (0000ms, 1198ms total)
T58F4 001:215 JLINK_GetNumWPUnits()  returns 0x04 (0000ms, 1198ms total)
T58F4 001:215 JLINK_GetSpeed()  returns 0xFA0 (0001ms, 1198ms total)
T58F4 001:216 JLINK_ReadMemU32(0xE000E004, 0x0001 Items, ...) -- CPU_ReadMem(4 bytes @ 0xE000E004) -- Data:  01 00 00 00  returns 0x01 (0001ms, 1199ms total)
T58F4 001:217 JLINK_WriteMem(0xE0001000, 0x001C Bytes, ...) -- Data:  01 00 00 00 00 00 00 00 00 00 00 00 00 00 00 00 ... -- CPU_WriteMem(28 bytes @ 0xE0001000)  returns 0x1C (0001ms, 1200ms total)
T58F4 001:218 JLINK_ReadMem (0xE0001000, 0x001C Bytes, ...) -- CPU_ReadMem(28 bytes @ 0xE0001000) -- Data:  01 00 00 40 00 00 00 00 00 00 00 00 00 00 00 00 ...  returns 0x00 (0001ms, 1201ms total)
T58F4 001:219 JLINK_ReadReg(R15)  returns 0x0800018C (0000ms, 1202ms total)
T58F4 001:219 JLINK_ReadReg(XPSR)  returns 0x01000000 (0000ms, 1202ms total)
T58F4 001:658 JLINK_SetResetType(JLINKARM_RESET_TYPE_NORMAL)  returns JLINKARM_RESET_TYPE_NORMAL (0000ms, 1202ms total)
T58F4 001:658 JLINK_Reset() >0x108 TIF>Found SWD-DP with ID 0x1BA01477 >0x33 TIF> >0x33 TIF> >0x35 TIF> >0x33 TIF> >0x35 TIF> >0x33 TIF> >0x33 TIF> >0x9B TIF> >0x9B TIF> >0x1D7 TIF> >0x13A TIF> >0x13A TIF>TPIU fitted. >0x13A TIF>ETM fitted. >0x13A TIF>  FPUnit: 6 code (BP) slots and 2 literal slots >0x13A TIF> >0x13A TIF> (0032ms, 1202ms total)
T58F4 001:690 JLINK_ReadReg(R15)  returns 0x0800018C (0000ms, 1234ms total)
T58F4 001:690 JLINK_ReadReg(XPSR)  returns 0x01000000 (0000ms, 1234ms total)
T58F4 001:690 JLINK_ReadReg(R0)  returns 0x00000000 (0000ms, 1234ms total)
T58F4 001:690 JLINK_ReadReg(R1)  returns 0x00000003 (0000ms, 1234ms total)
T58F4 001:690 JLINK_ReadReg(R2)  returns 0x40022000 (0000ms, 1234ms total)
T58F4 001:690 JLINK_ReadReg(R3)  returns 0x04C11DB7 (0000ms, 1234ms total)
T58F4 001:690 JLINK_ReadReg(R4)  returns 0x00000000 (0000ms, 1234ms total)
T58F4 001:690 JLINK_ReadReg(R5)  returns 0x00000000 (0000ms, 1234ms total)
T58F4 001:690 JLINK_ReadReg(R6)  returns 0x00000000 (0000ms, 1234ms total)
T58F4 001:690 JLINK_ReadReg(R7)  returns 0x00000000 (0000ms, 1234ms total)
T58F4 001:690 JLINK_ReadReg(R8)  returns 0x00000000 (0000ms, 1234ms total)
T58F4 001:690 JLINK_ReadReg(R9)  returns 0x20000160 (0000ms, 1234ms total)
T58F4 001:690 JLINK_ReadReg(R10)  returns 0x00000000 (0000ms, 1234ms total)
T58F4 001:690 JLINK_ReadReg(R11)  returns 0x00000000 (0000ms, 1234ms total)
T58F4 001:690 JLINK_ReadReg(R12)  returns 0x00000000 (0000ms, 1234ms total)
T58F4 001:690 JLINK_ReadReg(R13)  returns 0x20000278 (0000ms, 1234ms total)
T58F4 001:690 JLINK_ReadReg(R14)  returns 0xFFFFFFFF (0000ms, 1234ms total)
T58F4 001:690 JLINK_ReadReg(R15)  returns 0x0800018C (0000ms, 1234ms total)
T58F4 001:690 JLINK_ReadReg(XPSR)  returns 0x01000000 (0000ms, 1234ms total)
T58F4 001:690 JLINK_ReadReg(MSP)  returns 0x20000278 (0000ms, 1234ms total)
T58F4 001:690 JLINK_ReadReg(PSP)  returns 0x20000800 (0000ms, 1234ms total)
T58F4 001:690 JLINK_ReadReg(CFBP)  returns 0x00000000 (0000ms, 1234ms total)
T58F4 001:691 JLINK_ReadMemU32(0xE0001004, 0x0001 Items, ...) -- CPU_ReadMem(4 bytes @ 0xE0001004) -- Data:  01 00 00 40  returns 0x01 (0002ms, 1234ms total)
T58F4 001:693 JLINK_ReadMem (0x0800018C, 0x003C Bytes, ...) -- CPU_ReadMem(128 bytes @ 0x08000180) -- Updating C cache (128 bytes @ 0x08000180) -- Read from C cache (60 bytes @ 0x0800018C) -- Data:  08 48 00 47 FE E7 FE E7 FE E7 FE E7 FE E7 FE E7 ...  returns 0x00 (0003ms, 1236ms total)
T58F4 002:083 JLINK_ReadMem (0x08000144, 0x010E Bytes, ...) -- CPU_ReadMem(64 bytes @ 0x08000140) -- Updating C cache (64 bytes @ 0x08000140) -- CPU_ReadMem(128 bytes @ 0x08000200) -- Updating C cache (128 bytes @ 0x08000200) -- Read from C cache (270 bytes @ 0x08000144) -- Data:  00 23 00 24 00 25 00 26 10 3A 28 BF 78 C1 FB D8 ...  returns 0x00 (0004ms, 1239ms total)
T58F4 002:522 JLINK_ReadMem (0x08000144, 0x0132 Bytes, ...) -- Read from C cache (306 bytes @ 0x08000144) -- Data:  00 23 00 24 00 25 00 26 10 3A 28 BF 78 C1 FB D8 ...  returns 0x00 (0001ms, 1243ms total)
T58F4 002:532 JLINK_ReadMem (0x00000000, 0x0132 Bytes, ...)
                JLINK_ReadMemHW(0x00000000, 0x0004 Bytes, ...) -- CPU_ReadMem(4 bytes @ 0x00000000) -- Data:  78 02 00 20  returns 0x00 (0001ms, 0000ms total)
                JLINK_ReadMemHW(0x08000000, 0x0004 Bytes, ...) -- CPU_ReadMem(4 bytes @ 0x08000000) -- Data:  78 02 00 20  returns 0x00 (0001ms, 0001ms total)
                JLINK_WriteMemHW(0x00000000, 0x0004 Bytes, ...) -- Data:  09 00 01 00 -- CPU_WriteMem(4 bytes @ 0x00000000)  returns 0x04 (0000ms, 0002ms total)
                JLINK_ReadMemHW(0x00000000, 0x0004 Bytes, ...) -- CPU_ReadMem(4 bytes @ 0x00000000) -- Data:  78 02 00 20  returns 0x00 (0001ms, 0002ms total)
               -- MA0 is in flash -- Unmirror addr 0x00000000 -- CPU_ReadMem(320 bytes @ 0x08000000) -- Updating C cache (320 bytes @ 0x08000000) -- Read from C cache (306 bytes @ 0x08000000) -- Data:  78 02 00 20 8D 01 00 08 ED 01 00 08 EF 01 00 08 ...  returns 0x00 (0007ms, 1244ms total)
T58F4 035:128 JLINK_SetResetType(JLINKARM_RESET_TYPE_NORMAL)  returns JLINKARM_RESET_TYPE_NORMAL (0000ms, 1251ms total)
T58F4 035:128 JLINK_Reset() >0x108 TIF>Found SWD-DP with ID 0x1BA01477 >0x33 TIF> >0x33 TIF> >0x35 TIF> >0x33 TIF> >0x35 TIF> >0x33 TIF> >0x33 TIF> >0x9B TIF> >0x9B TIF> >0x1D7 TIF> >0x13A TIF> >0x13A TIF>TPIU fitted. >0x13A TIF>ETM fitted. >0x13A TIF>  FPUnit: 6 code (BP) slots and 2 literal slots >0x13A TIF> >0x13A TIF> (0031ms, 1251ms total)
T58F4 035:159 JLINK_ReadReg(R15)  returns 0x0800018C (0001ms, 1282ms total)
T58F4 035:160 JLINK_ReadReg(XPSR)  returns 0x01000000 (0000ms, 1283ms total)
T58F4 035:160 JLINK_ReadReg(R0)  returns 0x00000000 (0000ms, 1283ms total)
T58F4 035:160 JLINK_ReadReg(R1)  returns 0x00000003 (0000ms, 1283ms total)
T58F4 035:160 JLINK_ReadReg(R2)  returns 0x40022000 (0000ms, 1283ms total)
T58F4 035:160 JLINK_ReadReg(R3)  returns 0x04C11DB7 (0000ms, 1283ms total)
T58F4 035:160 JLINK_ReadReg(R4)  returns 0x00000000 (0000ms, 1283ms total)
T58F4 035:160 JLINK_ReadReg(R5)  returns 0x00000000 (0000ms, 1283ms total)
T58F4 035:160 JLINK_ReadReg(R6)  returns 0x00000000 (0000ms, 1283ms total)
T58F4 035:160 JLINK_ReadReg(R7)  returns 0x00000000 (0000ms, 1283ms total)
T58F4 035:160 JLINK_ReadReg(R8)  returns 0x00000000 (0000ms, 1283ms total)
T58F4 035:160 JLINK_ReadReg(R9)  returns 0x20000160 (0000ms, 1283ms total)
T58F4 035:160 JLINK_ReadReg(R10)  returns 0x00000000 (0000ms, 1283ms total)
T58F4 035:160 JLINK_ReadReg(R11)  returns 0x00000000 (0000ms, 1283ms total)
T58F4 035:160 JLINK_ReadReg(R12)  returns 0x00000000 (0000ms, 1283ms total)
T58F4 035:160 JLINK_ReadReg(R13)  returns 0x20000278 (0000ms, 1283ms total)
T58F4 035:160 JLINK_ReadReg(R14)  returns 0xFFFFFFFF (0000ms, 1283ms total)
T58F4 035:160 JLINK_ReadReg(R15)  returns 0x0800018C (0000ms, 1283ms total)
T58F4 035:160 JLINK_ReadReg(XPSR)  returns 0x01000000 (0000ms, 1283ms total)
T58F4 035:160 JLINK_ReadReg(MSP)  returns 0x20000278 (0000ms, 1283ms total)
T58F4 035:160 JLINK_ReadReg(PSP)  returns 0x20000800 (0000ms, 1283ms total)
T58F4 035:160 JLINK_ReadReg(CFBP)  returns 0x00000000 (0000ms, 1283ms total)
T58F4 035:161 JLINK_ReadMemU32(0xE0001004, 0x0001 Items, ...) -- CPU_ReadMem(4 bytes @ 0xE0001004) -- Data:  01 00 00 40  returns 0x01 (0001ms, 1283ms total)
T58F4 054:805 JLINK_WriteReg(R15, 0x0800018C)  returns 0x00 (0001ms, 1284ms total)
T58F4 054:806 JLINK_ReadReg(R0)  returns 0x00000000 (0000ms, 1285ms total)
T58F4 054:806 JLINK_ReadReg(R1)  returns 0x00000003 (0000ms, 1285ms total)
T58F4 054:806 JLINK_ReadReg(R2)  returns 0x40022000 (0000ms, 1285ms total)
T58F4 054:806 JLINK_ReadReg(R3)  returns 0x04C11DB7 (0000ms, 1285ms total)
T58F4 054:806 JLINK_ReadReg(R4)  returns 0x00000000 (0000ms, 1285ms total)
T58F4 054:806 JLINK_ReadReg(R5)  returns 0x00000000 (0000ms, 1285ms total)
T58F4 054:806 JLINK_ReadReg(R6)  returns 0x00000000 (0000ms, 1285ms total)
T58F4 054:806 JLINK_ReadReg(R7)  returns 0x00000000 (0000ms, 1285ms total)
T58F4 054:806 JLINK_ReadReg(R8)  returns 0x00000000 (0000ms, 1285ms total)
T58F4 054:806 JLINK_ReadReg(R9)  returns 0x20000160 (0000ms, 1285ms total)
T58F4 054:806 JLINK_ReadReg(R10)  returns 0x00000000 (0000ms, 1285ms total)
T58F4 054:806 JLINK_ReadReg(R11)  returns 0x00000000 (0000ms, 1285ms total)
T58F4 054:806 JLINK_ReadReg(R12)  returns 0x00000000 (0000ms, 1285ms total)
T58F4 054:806 JLINK_ReadReg(R13)  returns 0x20000278 (0000ms, 1285ms total)
T58F4 054:806 JLINK_ReadReg(R14)  returns 0xFFFFFFFF (0000ms, 1285ms total)
T58F4 054:806 JLINK_ReadReg(R15)  returns 0x0800018C (0000ms, 1285ms total)
T58F4 054:806 JLINK_ReadReg(XPSR)  returns 0x01000000 (0000ms, 1285ms total)
T58F4 054:806 JLINK_ReadReg(MSP)  returns 0x20000278 (0000ms, 1285ms total)
T58F4 054:806 JLINK_ReadReg(PSP)  returns 0x20000800 (0000ms, 1285ms total)
T58F4 054:806 JLINK_ReadReg(CFBP)  returns 0x00000000 (0000ms, 1285ms total)
T58F4 054:806 JLINK_ReadMemU32(0xE0001004, 0x0001 Items, ...) -- CPU_ReadMem(4 bytes @ 0xE0001004) -- Data:  01 00 00 40  returns 0x01 (0001ms, 1285ms total)
T58F4 054:892 JLINK_ReadMem (0x0800018C, 0x003C Bytes, ...) -- CPU_ReadMem(128 bytes @ 0x08000180) -- Updating C cache (128 bytes @ 0x08000180) -- Read from C cache (60 bytes @ 0x0800018C) -- Data:  08 48 00 47 FE E7 FE E7 FE E7 FE E7 FE E7 FE E7 ...  returns 0x00 (0002ms, 1286ms total)
T3F3C 086:846 JLINK_Step() -- Read from C cache (2 bytes @ 0x0800018C) -- Not simulated -- Invalidate MA0 status  returns 0x00 (0008ms, 1288ms total)
T3F3C 086:854 JLINK_ReadReg(R15)  returns 0x0800018E (0000ms, 1296ms total)
T3F3C 086:854 JLINK_ReadReg(XPSR)  returns 0x01000000 (0000ms, 1296ms total)
T3F3C 086:854 JLINK_ReadReg(R0)  returns 0x080000ED (0000ms, 1296ms total)
T3F3C 086:854 JLINK_ReadReg(R1)  returns 0x00000003 (0000ms, 1296ms total)
T3F3C 086:854 JLINK_ReadReg(R2)  returns 0x40022000 (0000ms, 1296ms total)
T3F3C 086:854 JLINK_ReadReg(R3)  returns 0x04C11DB7 (0000ms, 1296ms total)
T3F3C 086:854 JLINK_ReadReg(R4)  returns 0x00000000 (0000ms, 1296ms total)
T3F3C 086:854 JLINK_ReadReg(R5)  returns 0x00000000 (0000ms, 1296ms total)
T3F3C 086:854 JLINK_ReadReg(R6)  returns 0x00000000 (0000ms, 1296ms total)
T3F3C 086:854 JLINK_ReadReg(R7)  returns 0x00000000 (0001ms, 1296ms total)
T3F3C 086:855 JLINK_ReadReg(R8)  returns 0x00000000 (0000ms, 1297ms total)
T3F3C 086:855 JLINK_ReadReg(R9)  returns 0x20000160 (0000ms, 1297ms total)
T3F3C 086:855 JLINK_ReadReg(R10)  returns 0x00000000 (0000ms, 1297ms total)
T3F3C 086:855 JLINK_ReadReg(R11)  returns 0x00000000 (0000ms, 1297ms total)
T3F3C 086:855 JLINK_ReadReg(R12)  returns 0x00000000 (0000ms, 1297ms total)
T3F3C 086:855 JLINK_ReadReg(R13)  returns 0x20000278 (0000ms, 1297ms total)
T3F3C 086:855 JLINK_ReadReg(R14)  returns 0xFFFFFFFF (0000ms, 1297ms total)
T3F3C 086:855 JLINK_ReadReg(R15)  returns 0x0800018E (0000ms, 1297ms total)
T3F3C 086:855 JLINK_ReadReg(XPSR)  returns 0x01000000 (0000ms, 1297ms total)
T3F3C 086:855 JLINK_ReadReg(MSP)  returns 0x20000278 (0000ms, 1297ms total)
T3F3C 086:855 JLINK_ReadReg(PSP)  returns 0x20000800 (0000ms, 1297ms total)
T3F3C 086:855 JLINK_ReadReg(CFBP)  returns 0x00000000 (0000ms, 1297ms total)
T58F4 086:855 JLINK_ReadMemU32(0xE0001004, 0x0001 Items, ...) -- CPU_ReadMem(4 bytes @ 0xE0001004) -- Data:  01 00 00 40  returns 0x01 (0001ms, 1297ms total)
T58F4 086:871 JLINK_ReadMem (0x0800018C, 0x003C Bytes, ...) -- CPU_ReadMem(128 bytes @ 0x08000180) -- Updating C cache (128 bytes @ 0x08000180) -- Read from C cache (60 bytes @ 0x0800018C) -- Data:  08 48 00 47 FE E7 FE E7 FE E7 FE E7 FE E7 FE E7 ...  returns 0x00 (0002ms, 1298ms total)
T3F3C 090:926 JLINK_Step() -- Read from C cache (2 bytes @ 0x0800018E) -- Not simulated  returns 0x00 (0008ms, 1300ms total)
T3F3C 090:934 JLINK_ReadReg(R15)  returns 0x080000EC (0000ms, 1308ms total)
T3F3C 090:934 JLINK_ReadReg(XPSR)  returns 0x01000000 (0000ms, 1308ms total)
T3F3C 090:934 JLINK_ReadReg(R0)  returns 0x080000ED (0000ms, 1308ms total)
T3F3C 090:934 JLINK_ReadReg(R1)  returns 0x00000003 (0000ms, 1308ms total)
T3F3C 090:934 JLINK_ReadReg(R2)  returns 0x40022000 (0000ms, 1308ms total)
T3F3C 090:934 JLINK_ReadReg(R3)  returns 0x04C11DB7 (0000ms, 1308ms total)
T3F3C 090:934 JLINK_ReadReg(R4)  returns 0x00000000 (0000ms, 1308ms total)
T3F3C 090:934 JLINK_ReadReg(R5)  returns 0x00000000 (0000ms, 1308ms total)
T3F3C 090:934 JLINK_ReadReg(R6)  returns 0x00000000 (0000ms, 1308ms total)
T3F3C 090:934 JLINK_ReadReg(R7)  returns 0x00000000 (0000ms, 1308ms total)
T3F3C 090:934 JLINK_ReadReg(R8)  returns 0x00000000 (0000ms, 1308ms total)
T3F3C 090:934 JLINK_ReadReg(R9)  returns 0x20000160 (0000ms, 1308ms total)
T3F3C 090:934 JLINK_ReadReg(R10)  returns 0x00000000 (0000ms, 1308ms total)
T3F3C 090:934 JLINK_ReadReg(R11)  returns 0x00000000 (0000ms, 1308ms total)
T3F3C 090:934 JLINK_ReadReg(R12)  returns 0x00000000 (0000ms, 1308ms total)
T3F3C 090:934 JLINK_ReadReg(R13)  returns 0x20000278 (0000ms, 1308ms total)
T3F3C 090:934 JLINK_ReadReg(R14)  returns 0xFFFFFFFF (0000ms, 1308ms total)
T3F3C 090:934 JLINK_ReadReg(R15)  returns 0x080000EC (0001ms, 1308ms total)
T3F3C 090:935 JLINK_ReadReg(XPSR)  returns 0x01000000 (0000ms, 1309ms total)
T3F3C 090:935 JLINK_ReadReg(MSP)  returns 0x20000278 (0000ms, 1309ms total)
T3F3C 090:935 JLINK_ReadReg(PSP)  returns 0x20000800 (0000ms, 1309ms total)
T3F3C 090:935 JLINK_ReadReg(CFBP)  returns 0x00000000 (0000ms, 1309ms total)
T58F4 090:935 JLINK_ReadMemU32(0xE0001004, 0x0001 Items, ...) -- CPU_ReadMem(4 bytes @ 0xE0001004) -- Data:  01 00 00 40  returns 0x01 (0001ms, 1309ms total)
T58F4 090:948 JLINK_ReadMem (0x080000EC, 0x003C Bytes, ...) -- CPU_ReadMem(128 bytes @ 0x080000C0) -- Updating C cache (128 bytes @ 0x080000C0) -- Read from C cache (60 bytes @ 0x080000EC) -- Data:  00 F0 02 F8 00 F0 3C F8 0A A0 90 E8 00 0C 82 44 ...  returns 0x00 (0002ms, 1310ms total)
T3F3C 099:086 JLINK_Step() -- Read from C cache (2 bytes @ 0x080000EC) -- Not simulated  returns 0x00 (0008ms, 1312ms total)
T3F3C 099:094 JLINK_ReadReg(R15)  returns 0x080000F4 (0000ms, 1320ms total)
T3F3C 099:094 JLINK_ReadReg(XPSR)  returns 0x01000000 (0000ms, 1320ms total)
T3F3C 099:094 JLINK_ReadReg(R0)  returns 0x080000ED (0000ms, 1320ms total)
T3F3C 099:094 JLINK_ReadReg(R1)  returns 0x00000003 (0000ms, 1320ms total)
T3F3C 099:094 JLINK_ReadReg(R2)  returns 0x40022000 (0000ms, 1320ms total)
T3F3C 099:094 JLINK_ReadReg(R3)  returns 0x04C11DB7 (0000ms, 1320ms total)
T3F3C 099:094 JLINK_ReadReg(R4)  returns 0x00000000 (0000ms, 1320ms total)
T3F3C 099:094 JLINK_ReadReg(R5)  returns 0x00000000 (0000ms, 1320ms total)
T3F3C 099:094 JLINK_ReadReg(R6)  returns 0x00000000 (0000ms, 1320ms total)
T3F3C 099:094 JLINK_ReadReg(R7)  returns 0x00000000 (0000ms, 1320ms total)
T3F3C 099:094 JLINK_ReadReg(R8)  returns 0x00000000 (0000ms, 1320ms total)
T3F3C 099:094 JLINK_ReadReg(R9)  returns 0x20000160 (0000ms, 1320ms total)
T3F3C 099:094 JLINK_ReadReg(R10)  returns 0x00000000 (0001ms, 1320ms total)
T3F3C 099:095 JLINK_ReadReg(R11)  returns 0x00000000 (0000ms, 1321ms total)
T3F3C 099:095 JLINK_ReadReg(R12)  returns 0x00000000 (0000ms, 1321ms total)
T3F3C 099:095 JLINK_ReadReg(R13)  returns 0x20000278 (0000ms, 1321ms total)
T3F3C 099:095 JLINK_ReadReg(R14)  returns 0x080000F1 (0000ms, 1321ms total)
T3F3C 099:095 JLINK_ReadReg(R15)  returns 0x080000F4 (0000ms, 1321ms total)
T3F3C 099:095 JLINK_ReadReg(XPSR)  returns 0x01000000 (0000ms, 1321ms total)
T3F3C 099:095 JLINK_ReadReg(MSP)  returns 0x20000278 (0000ms, 1321ms total)
T3F3C 099:095 JLINK_ReadReg(PSP)  returns 0x20000800 (0000ms, 1321ms total)
T3F3C 099:095 JLINK_ReadReg(CFBP)  returns 0x00000000 (0000ms, 1321ms total)
T58F4 099:095 JLINK_ReadMemU32(0xE0001004, 0x0001 Items, ...) -- CPU_ReadMem(4 bytes @ 0xE0001004) -- Data:  01 00 00 40  returns 0x01 (0001ms, 1321ms total)
T3F3C 099:682 JLINK_Step() -- CPU_ReadMem(64 bytes @ 0x080000C0) -- Updating C cache (64 bytes @ 0x080000C0) -- Read from C cache (2 bytes @ 0x080000F4) -- Not simulated  returns 0x00 (0009ms, 1322ms total)
T3F3C 099:691 JLINK_ReadReg(R15)  returns 0x080000F6 (0000ms, 1331ms total)
T3F3C 099:691 JLINK_ReadReg(XPSR)  returns 0x01000000 (0001ms, 1331ms total)
T3F3C 099:692 JLINK_ReadReg(R0)  returns 0x08000120 (0000ms, 1332ms total)
T3F3C 099:692 JLINK_ReadReg(R1)  returns 0x00000003 (0000ms, 1332ms total)
T3F3C 099:692 JLINK_ReadReg(R2)  returns 0x40022000 (0000ms, 1332ms total)
T3F3C 099:692 JLINK_ReadReg(R3)  returns 0x04C11DB7 (0000ms, 1332ms total)
T3F3C 099:692 JLINK_ReadReg(R4)  returns 0x00000000 (0000ms, 1332ms total)
T3F3C 099:692 JLINK_ReadReg(R5)  returns 0x00000000 (0000ms, 1332ms total)
T3F3C 099:692 JLINK_ReadReg(R6)  returns 0x00000000 (0000ms, 1332ms total)
T3F3C 099:692 JLINK_ReadReg(R7)  returns 0x00000000 (0000ms, 1332ms total)
T3F3C 099:692 JLINK_ReadReg(R8)  returns 0x00000000 (0000ms, 1332ms total)
T3F3C 099:692 JLINK_ReadReg(R9)  returns 0x20000160 (0000ms, 1332ms total)
T3F3C 099:692 JLINK_ReadReg(R10)  returns 0x00000000 (0000ms, 1332ms total)
T3F3C 099:692 JLINK_ReadReg(R11)  returns 0x00000000 (0000ms, 1332ms total)
T3F3C 099:692 JLINK_ReadReg(R12)  returns 0x00000000 (0000ms, 1332ms total)
T3F3C 099:692 JLINK_ReadReg(R13)  returns 0x20000278 (0000ms, 1332ms total)
T3F3C 099:692 JLINK_ReadReg(R14)  returns 0x080000F1 (0000ms, 1332ms total)
T3F3C 099:692 JLINK_ReadReg(R15)  returns 0x080000F6 (0000ms, 1332ms total)
T3F3C 099:692 JLINK_ReadReg(XPSR)  returns 0x01000000 (0000ms, 1332ms total)
T3F3C 099:692 JLINK_ReadReg(MSP)  returns 0x20000278 (0000ms, 1332ms total)
T3F3C 099:692 JLINK_ReadReg(PSP)  returns 0x20000800 (0000ms, 1332ms total)
T3F3C 099:692 JLINK_ReadReg(CFBP)  returns 0x00000000 (0000ms, 1332ms total)
T58F4 099:692 JLINK_ReadMemU32(0xE0001004, 0x0001 Items, ...) -- CPU_ReadMem(4 bytes @ 0xE0001004) -- Data:  01 00 00 40  returns 0x01 (0001ms, 1332ms total)
T3F3C 099:992 JLINK_Step() -- CPU_ReadMem(64 bytes @ 0x080000C0) -- Updating C cache (64 bytes @ 0x080000C0) -- Read from C cache (2 bytes @ 0x080000F6) -- Not simulated  returns 0x00 (0009ms, 1333ms total)
T3F3C 100:001 JLINK_ReadReg(R15)  returns 0x080000FA (0000ms, 1342ms total)
T3F3C 100:001 JLINK_ReadReg(XPSR)  returns 0x01000000 (0000ms, 1342ms total)
T3F3C 100:001 JLINK_ReadReg(R0)  returns 0x08000120 (0000ms, 1342ms total)
T3F3C 100:001 JLINK_ReadReg(R1)  returns 0x00000003 (0000ms, 1342ms total)
T3F3C 100:001 JLINK_ReadReg(R2)  returns 0x40022000 (0000ms, 1342ms total)
T3F3C 100:001 JLINK_ReadReg(R3)  returns 0x04C11DB7 (0000ms, 1342ms total)
T3F3C 100:001 JLINK_ReadReg(R4)  returns 0x00000000 (0000ms, 1342ms total)
T3F3C 100:001 JLINK_ReadReg(R5)  returns 0x00000000 (0000ms, 1342ms total)
T3F3C 100:001 JLINK_ReadReg(R6)  returns 0x00000000 (0000ms, 1342ms total)
T3F3C 100:001 JLINK_ReadReg(R7)  returns 0x00000000 (0000ms, 1342ms total)
T3F3C 100:001 JLINK_ReadReg(R8)  returns 0x00000000 (0000ms, 1342ms total)
T3F3C 100:001 JLINK_ReadReg(R9)  returns 0x20000160 (0000ms, 1342ms total)
T3F3C 100:001 JLINK_ReadReg(R10)  returns 0x000008BC (0000ms, 1342ms total)
T3F3C 100:001 JLINK_ReadReg(R11)  returns 0x000008DC (0000ms, 1342ms total)
T3F3C 100:001 JLINK_ReadReg(R12)  returns 0x00000000 (0000ms, 1342ms total)
T3F3C 100:001 JLINK_ReadReg(R13)  returns 0x20000278 (0001ms, 1342ms total)
T3F3C 100:002 JLINK_ReadReg(R14)  returns 0x080000F1 (0000ms, 1343ms total)
T3F3C 100:002 JLINK_ReadReg(R15)  returns 0x080000FA (0000ms, 1343ms total)
T3F3C 100:002 JLINK_ReadReg(XPSR)  returns 0x01000000 (0000ms, 1343ms total)
T3F3C 100:002 JLINK_ReadReg(MSP)  returns 0x20000278 (0000ms, 1343ms total)
T3F3C 100:002 JLINK_ReadReg(PSP)  returns 0x20000800 (0000ms, 1343ms total)
T3F3C 100:002 JLINK_ReadReg(CFBP)  returns 0x00000000 (0000ms, 1343ms total)
T58F4 100:002 JLINK_ReadMemU32(0xE0001004, 0x0001 Items, ...) -- CPU_ReadMem(4 bytes @ 0xE0001004) -- Data:  01 00 00 40  returns 0x01 (0001ms, 1343ms total)
T3F3C 100:479 JLINK_Step() -- CPU_ReadMem(64 bytes @ 0x080000C0) -- Updating C cache (64 bytes @ 0x080000C0) -- Read from C cache (2 bytes @ 0x080000FA) -- Not simulated  returns 0x00 (0010ms, 1344ms total)
T3F3C 100:489 JLINK_ReadReg(R15)  returns 0x080000FC (0001ms, 1354ms total)
T3F3C 100:490 JLINK_ReadReg(XPSR)  returns 0x01000000 (0000ms, 1355ms total)
T3F3C 100:490 JLINK_ReadReg(R0)  returns 0x08000120 (0000ms, 1355ms total)
T3F3C 100:490 JLINK_ReadReg(R1)  returns 0x00000003 (0000ms, 1355ms total)
T3F3C 100:490 JLINK_ReadReg(R2)  returns 0x40022000 (0000ms, 1355ms total)
T3F3C 100:490 JLINK_ReadReg(R3)  returns 0x04C11DB7 (0000ms, 1355ms total)
T3F3C 100:490 JLINK_ReadReg(R4)  returns 0x00000000 (0000ms, 1355ms total)
T3F3C 100:490 JLINK_ReadReg(R5)  returns 0x00000000 (0000ms, 1355ms total)
T3F3C 100:490 JLINK_ReadReg(R6)  returns 0x00000000 (0000ms, 1355ms total)
T3F3C 100:490 JLINK_ReadReg(R7)  returns 0x00000000 (0000ms, 1355ms total)
T3F3C 100:490 JLINK_ReadReg(R8)  returns 0x00000000 (0000ms, 1355ms total)
T3F3C 100:490 JLINK_ReadReg(R9)  returns 0x20000160 (0000ms, 1355ms total)
T3F3C 100:490 JLINK_ReadReg(R10)  returns 0x080009DC (0000ms, 1355ms total)
T3F3C 100:490 JLINK_ReadReg(R11)  returns 0x000008DC (0000ms, 1355ms total)
T3F3C 100:490 JLINK_ReadReg(R12)  returns 0x00000000 (0000ms, 1355ms total)
T3F3C 100:490 JLINK_ReadReg(R13)  returns 0x20000278 (0000ms, 1355ms total)
T3F3C 100:490 JLINK_ReadReg(R14)  returns 0x080000F1 (0000ms, 1355ms total)
T3F3C 100:490 JLINK_ReadReg(R15)  returns 0x080000FC (0000ms, 1355ms total)
T3F3C 100:490 JLINK_ReadReg(XPSR)  returns 0x01000000 (0000ms, 1355ms total)
T3F3C 100:490 JLINK_ReadReg(MSP)  returns 0x20000278 (0000ms, 1355ms total)
T3F3C 100:490 JLINK_ReadReg(PSP)  returns 0x20000800 (0000ms, 1355ms total)
T3F3C 100:490 JLINK_ReadReg(CFBP)  returns 0x00000000 (0000ms, 1355ms total)
T58F4 100:490 JLINK_ReadMemU32(0xE0001004, 0x0001 Items, ...) -- CPU_ReadMem(4 bytes @ 0xE0001004) -- Data:  01 00 00 40  returns 0x01 (0001ms, 1355ms total)
T3F3C 101:000 JLINK_Step() -- CPU_ReadMem(64 bytes @ 0x080000C0) -- Updating C cache (64 bytes @ 0x080000C0) -- Read from C cache (2 bytes @ 0x080000FC) -- Not simulated  returns 0x00 (0010ms, 1356ms total)
T3F3C 101:010 JLINK_ReadReg(R15)  returns 0x080000FE (0000ms, 1366ms total)
T3F3C 101:010 JLINK_ReadReg(XPSR)  returns 0x01000000 (0000ms, 1366ms total)
T3F3C 101:010 JLINK_ReadReg(R0)  returns 0x08000120 (0000ms, 1366ms total)
T3F3C 101:010 JLINK_ReadReg(R1)  returns 0x00000003 (0000ms, 1366ms total)
T3F3C 101:010 JLINK_ReadReg(R2)  returns 0x40022000 (0000ms, 1366ms total)
T3F3C 101:010 JLINK_ReadReg(R3)  returns 0x04C11DB7 (0000ms, 1366ms total)
T3F3C 101:010 JLINK_ReadReg(R4)  returns 0x00000000 (0000ms, 1366ms total)
T3F3C 101:010 JLINK_ReadReg(R5)  returns 0x00000000 (0000ms, 1366ms total)
T3F3C 101:010 JLINK_ReadReg(R6)  returns 0x00000000 (0000ms, 1366ms total)
T3F3C 101:010 JLINK_ReadReg(R7)  returns 0x00000000 (0000ms, 1366ms total)
T3F3C 101:010 JLINK_ReadReg(R8)  returns 0x00000000 (0000ms, 1366ms total)
T3F3C 101:010 JLINK_ReadReg(R9)  returns 0x20000160 (0000ms, 1366ms total)
T3F3C 101:010 JLINK_ReadReg(R10)  returns 0x080009DC (0000ms, 1366ms total)
T3F3C 101:010 JLINK_ReadReg(R11)  returns 0x080009FC (0000ms, 1366ms total)
T3F3C 101:010 JLINK_ReadReg(R12)  returns 0x00000000 (0000ms, 1366ms total)
T3F3C 101:010 JLINK_ReadReg(R13)  returns 0x20000278 (0000ms, 1366ms total)
T3F3C 101:010 JLINK_ReadReg(R14)  returns 0x080000F1 (0000ms, 1366ms total)
T3F3C 101:010 JLINK_ReadReg(R15)  returns 0x080000FE (0000ms, 1366ms total)
T3F3C 101:010 JLINK_ReadReg(XPSR)  returns 0x01000000 (0000ms, 1366ms total)
T3F3C 101:010 JLINK_ReadReg(MSP)  returns 0x20000278 (0000ms, 1366ms total)
T3F3C 101:010 JLINK_ReadReg(PSP)  returns 0x20000800 (0000ms, 1366ms total)
T3F3C 101:010 JLINK_ReadReg(CFBP)  returns 0x00000000 (0000ms, 1366ms total)
T58F4 101:010 JLINK_ReadMemU32(0xE0001004, 0x0001 Items, ...) -- CPU_ReadMem(4 bytes @ 0xE0001004) -- Data:  01 00 00 40  returns 0x01 (0001ms, 1366ms total)
T3F3C 101:286 JLINK_Step() -- CPU_ReadMem(64 bytes @ 0x080000C0) -- Updating C cache (64 bytes @ 0x080000C0) -- Read from C cache (2 bytes @ 0x080000FE) -- Not simulated  returns 0x00 (0009ms, 1367ms total)
T3F3C 101:295 JLINK_ReadReg(R15)  returns 0x08000102 (0000ms, 1376ms total)
T3F3C 101:295 JLINK_ReadReg(XPSR)  returns 0x01000000 (0000ms, 1376ms total)
T3F3C 101:295 JLINK_ReadReg(R0)  returns 0x08000120 (0000ms, 1376ms total)
T3F3C 101:295 JLINK_ReadReg(R1)  returns 0x00000003 (0000ms, 1376ms total)
T3F3C 101:295 JLINK_ReadReg(R2)  returns 0x40022000 (0000ms, 1376ms total)
T3F3C 101:295 JLINK_ReadReg(R3)  returns 0x04C11DB7 (0000ms, 1376ms total)
T3F3C 101:295 JLINK_ReadReg(R4)  returns 0x00000000 (0000ms, 1376ms total)
T3F3C 101:295 JLINK_ReadReg(R5)  returns 0x00000000 (0000ms, 1376ms total)
T3F3C 101:295 JLINK_ReadReg(R6)  returns 0x00000000 (0000ms, 1376ms total)
T3F3C 101:295 JLINK_ReadReg(R7)  returns 0x080009DB (0000ms, 1376ms total)
T3F3C 101:295 JLINK_ReadReg(R8)  returns 0x00000000 (0000ms, 1376ms total)
T3F3C 101:295 JLINK_ReadReg(R9)  returns 0x20000160 (0000ms, 1376ms total)
T3F3C 101:295 JLINK_ReadReg(R10)  returns 0x080009DC (0000ms, 1376ms total)
T3F3C 101:295 JLINK_ReadReg(R11)  returns 0x080009FC (0000ms, 1376ms total)
T3F3C 101:295 JLINK_ReadReg(R12)  returns 0x00000000 (0000ms, 1376ms total)
T3F3C 101:295 JLINK_ReadReg(R13)  returns 0x20000278 (0000ms, 1376ms total)
T3F3C 101:295 JLINK_ReadReg(R14)  returns 0x080000F1 (0000ms, 1376ms total)
T3F3C 101:295 JLINK_ReadReg(R15)  returns 0x08000102 (0000ms, 1376ms total)
T3F3C 101:295 JLINK_ReadReg(XPSR)  returns 0x01000000 (0000ms, 1376ms total)
T3F3C 101:295 JLINK_ReadReg(MSP)  returns 0x20000278 (0000ms, 1376ms total)
T3F3C 101:295 JLINK_ReadReg(PSP)  returns 0x20000800 (0000ms, 1376ms total)
T3F3C 101:295 JLINK_ReadReg(CFBP)  returns 0x00000000 (0000ms, 1376ms total)
T58F4 101:296 JLINK_ReadMemU32(0xE0001004, 0x0001 Items, ...) -- CPU_ReadMem(4 bytes @ 0xE0001004) -- Data:  01 00 00 40  returns 0x01 (0001ms, 1376ms total)
T3F3C 101:580 JLINK_Step() -- CPU_ReadMem(64 bytes @ 0x08000100) -- Updating C cache (64 bytes @ 0x08000100) -- Read from C cache (2 bytes @ 0x08000102) -- Not simulated  returns 0x00 (0010ms, 1377ms total)
T3F3C 101:590 JLINK_ReadReg(R15)  returns 0x08000104 (0000ms, 1387ms total)
T3F3C 101:590 JLINK_ReadReg(XPSR)  returns 0x81000000 (0000ms, 1387ms total)
T3F3C 101:590 JLINK_ReadReg(R0)  returns 0x08000120 (0000ms, 1387ms total)
T3F3C 101:590 JLINK_ReadReg(R1)  returns 0x00000003 (0000ms, 1387ms total)
T3F3C 101:590 JLINK_ReadReg(R2)  returns 0x40022000 (0000ms, 1387ms total)
T3F3C 101:590 JLINK_ReadReg(R3)  returns 0x04C11DB7 (0000ms, 1387ms total)
T3F3C 101:590 JLINK_ReadReg(R4)  returns 0x00000000 (0000ms, 1387ms total)
T3F3C 101:590 JLINK_ReadReg(R5)  returns 0x00000000 (0000ms, 1387ms total)
T3F3C 101:590 JLINK_ReadReg(R6)  returns 0x00000000 (0000ms, 1387ms total)
T3F3C 101:590 JLINK_ReadReg(R7)  returns 0x080009DB (0000ms, 1387ms total)
T3F3C 101:590 JLINK_ReadReg(R8)  returns 0x00000000 (0000ms, 1387ms total)
T3F3C 101:590 JLINK_ReadReg(R9)  returns 0x20000160 (0000ms, 1387ms total)
T3F3C 101:590 JLINK_ReadReg(R10)  returns 0x080009DC (0000ms, 1387ms total)
T3F3C 101:590 JLINK_ReadReg(R11)  returns 0x080009FC (0001ms, 1387ms total)
T3F3C 101:591 JLINK_ReadReg(R12)  returns 0x00000000 (0000ms, 1388ms total)
T3F3C 101:591 JLINK_ReadReg(R13)  returns 0x20000278 (0000ms, 1388ms total)
T3F3C 101:591 JLINK_ReadReg(R14)  returns 0x080000F1 (0000ms, 1388ms total)
T3F3C 101:591 JLINK_ReadReg(R15)  returns 0x08000104 (0000ms, 1388ms total)
T3F3C 101:591 JLINK_ReadReg(XPSR)  returns 0x81000000 (0000ms, 1388ms total)
T3F3C 101:591 JLINK_ReadReg(MSP)  returns 0x20000278 (0000ms, 1388ms total)
T3F3C 101:591 JLINK_ReadReg(PSP)  returns 0x20000800 (0000ms, 1388ms total)
T3F3C 101:591 JLINK_ReadReg(CFBP)  returns 0x00000000 (0000ms, 1388ms total)
T58F4 101:591 JLINK_ReadMemU32(0xE0001004, 0x0001 Items, ...) -- CPU_ReadMem(4 bytes @ 0xE0001004) -- Data:  01 00 00 40  returns 0x01 (0001ms, 1388ms total)
T3F3C 102:301 JLINK_Step() -- CPU_ReadMem(64 bytes @ 0x08000100) -- Updating C cache (64 bytes @ 0x08000100) -- Read from C cache (2 bytes @ 0x08000104) -- Not simulated  returns 0x00 (0009ms, 1389ms total)
T3F3C 102:310 JLINK_ReadReg(R15)  returns 0x0800010A (0000ms, 1398ms total)
T3F3C 102:310 JLINK_ReadReg(XPSR)  returns 0x81000000 (0000ms, 1398ms total)
T3F3C 102:311 JLINK_ReadReg(R0)  returns 0x08000120 (0000ms, 1398ms total)
T3F3C 102:311 JLINK_ReadReg(R1)  returns 0x00000003 (0000ms, 1398ms total)
T3F3C 102:311 JLINK_ReadReg(R2)  returns 0x40022000 (0000ms, 1398ms total)
T3F3C 102:311 JLINK_ReadReg(R3)  returns 0x04C11DB7 (0000ms, 1398ms total)
T3F3C 102:311 JLINK_ReadReg(R4)  returns 0x00000000 (0000ms, 1398ms total)
T3F3C 102:311 JLINK_ReadReg(R5)  returns 0x00000000 (0000ms, 1398ms total)
T3F3C 102:311 JLINK_ReadReg(R6)  returns 0x00000000 (0000ms, 1398ms total)
T3F3C 102:311 JLINK_ReadReg(R7)  returns 0x080009DB (0000ms, 1398ms total)
T3F3C 102:311 JLINK_ReadReg(R8)  returns 0x00000000 (0000ms, 1398ms total)
T3F3C 102:311 JLINK_ReadReg(R9)  returns 0x20000160 (0000ms, 1398ms total)
T3F3C 102:311 JLINK_ReadReg(R10)  returns 0x080009DC (0000ms, 1398ms total)
T3F3C 102:311 JLINK_ReadReg(R11)  returns 0x080009FC (0000ms, 1398ms total)
T3F3C 102:311 JLINK_ReadReg(R12)  returns 0x00000000 (0000ms, 1398ms total)
T3F3C 102:311 JLINK_ReadReg(R13)  returns 0x20000278 (0000ms, 1398ms total)
T3F3C 102:311 JLINK_ReadReg(R14)  returns 0x080000F1 (0000ms, 1398ms total)
T3F3C 102:311 JLINK_ReadReg(R15)  returns 0x0800010A (0000ms, 1398ms total)
T3F3C 102:311 JLINK_ReadReg(XPSR)  returns 0x81000000 (0000ms, 1398ms total)
T3F3C 102:311 JLINK_ReadReg(MSP)  returns 0x20000278 (0000ms, 1398ms total)
T3F3C 102:311 JLINK_ReadReg(PSP)  returns 0x20000800 (0000ms, 1398ms total)
T3F3C 102:311 JLINK_ReadReg(CFBP)  returns 0x00000000 (0000ms, 1398ms total)
T58F4 102:311 JLINK_ReadMemU32(0xE0001004, 0x0001 Items, ...) -- CPU_ReadMem(4 bytes @ 0xE0001004) -- Data:  01 00 00 40  returns 0x01 (0001ms, 1398ms total)
T3F3C 102:912 JLINK_Step() -- CPU_ReadMem(64 bytes @ 0x08000100) -- Updating C cache (64 bytes @ 0x08000100) -- Read from C cache (2 bytes @ 0x0800010A) -- Not simulated  returns 0x00 (0010ms, 1399ms total)
T3F3C 102:922 JLINK_ReadReg(R15)  returns 0x0800010E (0000ms, 1409ms total)
T3F3C 102:922 JLINK_ReadReg(XPSR)  returns 0x81000000 (0000ms, 1409ms total)
T3F3C 102:922 JLINK_ReadReg(R0)  returns 0x08000120 (0000ms, 1409ms total)
T3F3C 102:922 JLINK_ReadReg(R1)  returns 0x00000003 (0000ms, 1409ms total)
T3F3C 102:922 JLINK_ReadReg(R2)  returns 0x40022000 (0000ms, 1409ms total)
T3F3C 102:922 JLINK_ReadReg(R3)  returns 0x04C11DB7 (0000ms, 1409ms total)
T3F3C 102:922 JLINK_ReadReg(R4)  returns 0x00000000 (0000ms, 1409ms total)
T3F3C 102:922 JLINK_ReadReg(R5)  returns 0x00000000 (0000ms, 1409ms total)
T3F3C 102:922 JLINK_ReadReg(R6)  returns 0x00000000 (0000ms, 1409ms total)
T3F3C 102:922 JLINK_ReadReg(R7)  returns 0x080009DB (0000ms, 1409ms total)
T3F3C 102:922 JLINK_ReadReg(R8)  returns 0x00000000 (0000ms, 1409ms total)
T3F3C 102:922 JLINK_ReadReg(R9)  returns 0x20000160 (0000ms, 1409ms total)
T3F3C 102:922 JLINK_ReadReg(R10)  returns 0x080009DC (0000ms, 1409ms total)
T3F3C 102:922 JLINK_ReadReg(R11)  returns 0x080009FC (0001ms, 1409ms total)
T3F3C 102:923 JLINK_ReadReg(R12)  returns 0x00000000 (0000ms, 1410ms total)
T3F3C 102:923 JLINK_ReadReg(R13)  returns 0x20000278 (0000ms, 1410ms total)
T3F3C 102:923 JLINK_ReadReg(R14)  returns 0x08000103 (0000ms, 1410ms total)
T3F3C 102:923 JLINK_ReadReg(R15)  returns 0x0800010E (0000ms, 1410ms total)
T3F3C 102:923 JLINK_ReadReg(XPSR)  returns 0x81000000 (0000ms, 1410ms total)
T3F3C 102:923 JLINK_ReadReg(MSP)  returns 0x20000278 (0000ms, 1410ms total)
T3F3C 102:923 JLINK_ReadReg(PSP)  returns 0x20000800 (0000ms, 1410ms total)
T3F3C 102:923 JLINK_ReadReg(CFBP)  returns 0x00000000 (0000ms, 1410ms total)
T58F4 102:923 JLINK_ReadMemU32(0xE0001004, 0x0001 Items, ...) -- CPU_ReadMem(4 bytes @ 0xE0001004) -- Data:  01 00 00 40  returns 0x01 (0001ms, 1410ms total)
T3F3C 103:455 JLINK_Step() -- CPU_ReadMem(64 bytes @ 0x08000100) -- Updating C cache (64 bytes @ 0x08000100) -- Read from C cache (2 bytes @ 0x0800010E) -- Not simulated  returns 0x00 (0009ms, 1411ms total)
T3F3C 103:464 JLINK_ReadReg(R15)  returns 0x08000112 (0000ms, 1420ms total)
T3F3C 103:465 JLINK_ReadReg(XPSR)  returns 0x81000000 (0000ms, 1421ms total)
T3F3C 103:465 JLINK_ReadReg(R0)  returns 0x080009FC (0000ms, 1421ms total)
T3F3C 103:465 JLINK_ReadReg(R1)  returns 0x20000000 (0000ms, 1421ms total)
T3F3C 103:465 JLINK_ReadReg(R2)  returns 0x00000014 (0000ms, 1421ms total)
T3F3C 103:465 JLINK_ReadReg(R3)  returns 0x08000128 (0000ms, 1421ms total)
T3F3C 103:465 JLINK_ReadReg(R4)  returns 0x00000000 (0000ms, 1421ms total)
T3F3C 103:465 JLINK_ReadReg(R5)  returns 0x00000000 (0000ms, 1421ms total)
T3F3C 103:465 JLINK_ReadReg(R6)  returns 0x00000000 (0000ms, 1421ms total)
T3F3C 103:465 JLINK_ReadReg(R7)  returns 0x080009DB (0000ms, 1421ms total)
T3F3C 103:465 JLINK_ReadReg(R8)  returns 0x00000000 (0000ms, 1421ms total)
T3F3C 103:465 JLINK_ReadReg(R9)  returns 0x20000160 (0001ms, 1421ms total)
T3F3C 103:466 JLINK_ReadReg(R10)  returns 0x080009EC (0000ms, 1422ms total)
T3F3C 103:466 JLINK_ReadReg(R11)  returns 0x080009FC (0000ms, 1422ms total)
T3F3C 103:466 JLINK_ReadReg(R12)  returns 0x00000000 (0000ms, 1422ms total)
T3F3C 103:466 JLINK_ReadReg(R13)  returns 0x20000278 (0000ms, 1422ms total)
T3F3C 103:466 JLINK_ReadReg(R14)  returns 0x08000103 (0000ms, 1422ms total)
T3F3C 103:466 JLINK_ReadReg(R15)  returns 0x08000112 (0000ms, 1422ms total)
T3F3C 103:466 JLINK_ReadReg(XPSR)  returns 0x81000000 (0000ms, 1422ms total)
T3F3C 103:466 JLINK_ReadReg(MSP)  returns 0x20000278 (0000ms, 1422ms total)
T3F3C 103:466 JLINK_ReadReg(PSP)  returns 0x20000800 (0000ms, 1422ms total)
T3F3C 103:466 JLINK_ReadReg(CFBP)  returns 0x00000000 (0000ms, 1422ms total)
T58F4 103:466 JLINK_ReadMemU32(0xE0001004, 0x0001 Items, ...) -- CPU_ReadMem(4 bytes @ 0xE0001004) -- Data:  01 00 00 40  returns 0x01 (0001ms, 1422ms total)
T3F3C 103:797 JLINK_Step() -- CPU_ReadMem(64 bytes @ 0x08000100) -- Updating C cache (64 bytes @ 0x08000100) -- Read from C cache (2 bytes @ 0x08000112) -- Not simulated  returns 0x00 (0009ms, 1423ms total)
T3F3C 103:806 JLINK_ReadReg(R15)  returns 0x08000116 (0000ms, 1432ms total)
T3F3C 103:806 JLINK_ReadReg(XPSR)  returns 0x41000000 (0000ms, 1432ms total)
T3F3C 103:806 JLINK_ReadReg(R0)  returns 0x080009FC (0000ms, 1432ms total)
T3F3C 103:806 JLINK_ReadReg(R1)  returns 0x20000000 (0000ms, 1432ms total)
T3F3C 103:806 JLINK_ReadReg(R2)  returns 0x00000014 (0000ms, 1432ms total)
T3F3C 103:806 JLINK_ReadReg(R3)  returns 0x08000128 (0000ms, 1432ms total)
T3F3C 103:806 JLINK_ReadReg(R4)  returns 0x00000000 (0000ms, 1432ms total)
T3F3C 103:806 JLINK_ReadReg(R5)  returns 0x00000000 (0000ms, 1432ms total)
T3F3C 103:806 JLINK_ReadReg(R6)  returns 0x00000000 (0000ms, 1432ms total)
T3F3C 103:806 JLINK_ReadReg(R7)  returns 0x080009DB (0000ms, 1432ms total)
T3F3C 103:806 JLINK_ReadReg(R8)  returns 0x00000000 (0000ms, 1432ms total)
T3F3C 103:806 JLINK_ReadReg(R9)  returns 0x20000160 (0000ms, 1432ms total)
T3F3C 103:806 JLINK_ReadReg(R10)  returns 0x080009EC (0000ms, 1432ms total)
T3F3C 103:806 JLINK_ReadReg(R11)  returns 0x080009FC (0000ms, 1432ms total)
T3F3C 103:806 JLINK_ReadReg(R12)  returns 0x00000000 (0000ms, 1432ms total)
T3F3C 103:806 JLINK_ReadReg(R13)  returns 0x20000278 (0000ms, 1432ms total)
T3F3C 103:806 JLINK_ReadReg(R14)  returns 0x08000103 (0000ms, 1432ms total)
T3F3C 103:806 JLINK_ReadReg(R15)  returns 0x08000116 (0000ms, 1432ms total)
T3F3C 103:806 JLINK_ReadReg(XPSR)  returns 0x41000000 (0000ms, 1432ms total)
T3F3C 103:806 JLINK_ReadReg(MSP)  returns 0x20000278 (0000ms, 1432ms total)
T3F3C 103:806 JLINK_ReadReg(PSP)  returns 0x20000800 (0000ms, 1432ms total)
T3F3C 103:806 JLINK_ReadReg(CFBP)  returns 0x00000000 (0000ms, 1432ms total)
T58F4 103:807 JLINK_ReadMemU32(0xE0001004, 0x0001 Items, ...) -- CPU_ReadMem(4 bytes @ 0xE0001004) -- Data:  01 00 00 40  returns 0x01 (0001ms, 1432ms total)
T3F3C 104:098 JLINK_Step() -- CPU_ReadMem(64 bytes @ 0x08000100) -- Updating C cache (64 bytes @ 0x08000100) -- Read from C cache (2 bytes @ 0x08000116) -- Not simulated  returns 0x00 (0010ms, 1433ms total)
T3F3C 104:108 JLINK_ReadReg(R15)  returns 0x08000118 (0000ms, 1443ms total)
T3F3C 104:108 JLINK_ReadReg(XPSR)  returns 0x41001800 (0000ms, 1443ms total)
T3F3C 104:108 JLINK_ReadReg(R0)  returns 0x080009FC (0000ms, 1443ms total)
T3F3C 104:108 JLINK_ReadReg(R1)  returns 0x20000000 (0000ms, 1443ms total)
T3F3C 104:108 JLINK_ReadReg(R2)  returns 0x00000014 (0000ms, 1443ms total)
T3F3C 104:108 JLINK_ReadReg(R3)  returns 0x08000128 (0000ms, 1443ms total)
T3F3C 104:108 JLINK_ReadReg(R4)  returns 0x00000000 (0000ms, 1443ms total)
T3F3C 104:108 JLINK_ReadReg(R5)  returns 0x00000000 (0000ms, 1443ms total)
T3F3C 104:108 JLINK_ReadReg(R6)  returns 0x00000000 (0000ms, 1443ms total)
T3F3C 104:108 JLINK_ReadReg(R7)  returns 0x080009DB (0000ms, 1443ms total)
T3F3C 104:108 JLINK_ReadReg(R8)  returns 0x00000000 (0000ms, 1443ms total)
T3F3C 104:108 JLINK_ReadReg(R9)  returns 0x20000160 (0000ms, 1443ms total)
T3F3C 104:108 JLINK_ReadReg(R10)  returns 0x080009EC (0000ms, 1443ms total)
T3F3C 104:108 JLINK_ReadReg(R11)  returns 0x080009FC (0000ms, 1443ms total)
T3F3C 104:108 JLINK_ReadReg(R12)  returns 0x00000000 (0000ms, 1443ms total)
T3F3C 104:108 JLINK_ReadReg(R13)  returns 0x20000278 (0001ms, 1443ms total)
T3F3C 104:109 JLINK_ReadReg(R14)  returns 0x08000103 (0000ms, 1444ms total)
T3F3C 104:109 JLINK_ReadReg(R15)  returns 0x08000118 (0000ms, 1444ms total)
T3F3C 104:109 JLINK_ReadReg(XPSR)  returns 0x41001800 (0000ms, 1444ms total)
T3F3C 104:109 JLINK_ReadReg(MSP)  returns 0x20000278 (0000ms, 1444ms total)
T3F3C 104:109 JLINK_ReadReg(PSP)  returns 0x20000800 (0000ms, 1444ms total)
T3F3C 104:109 JLINK_ReadReg(CFBP)  returns 0x00000000 (0000ms, 1444ms total)
T58F4 104:109 JLINK_ReadMemU32(0xE0001004, 0x0001 Items, ...) -- CPU_ReadMem(4 bytes @ 0xE0001004) -- Data:  01 00 00 40  returns 0x01 (0001ms, 1444ms total)
T3F3C 104:616 JLINK_Step() -- CPU_ReadMem(64 bytes @ 0x08000100) -- Updating C cache (64 bytes @ 0x08000100) -- Read from C cache (2 bytes @ 0x08000118) -- Not simulated  returns 0x00 (0010ms, 1445ms total)
T3F3C 104:626 JLINK_ReadReg(R15)  returns 0x0800011A (0000ms, 1455ms total)
T3F3C 104:626 JLINK_ReadReg(XPSR)  returns 0x41000000 (0000ms, 1455ms total)
T3F3C 104:626 JLINK_ReadReg(R0)  returns 0x080009FC (0000ms, 1455ms total)
T3F3C 104:626 JLINK_ReadReg(R1)  returns 0x20000000 (0000ms, 1455ms total)
T3F3C 104:626 JLINK_ReadReg(R2)  returns 0x00000014 (0000ms, 1455ms total)
T3F3C 104:626 JLINK_ReadReg(R3)  returns 0x08000128 (0000ms, 1455ms total)
T3F3C 104:626 JLINK_ReadReg(R4)  returns 0x00000000 (0000ms, 1455ms total)
T3F3C 104:626 JLINK_ReadReg(R5)  returns 0x00000000 (0000ms, 1455ms total)
T3F3C 104:626 JLINK_ReadReg(R6)  returns 0x00000000 (0000ms, 1455ms total)
T3F3C 104:626 JLINK_ReadReg(R7)  returns 0x080009DB (0000ms, 1455ms total)
T3F3C 104:626 JLINK_ReadReg(R8)  returns 0x00000000 (0000ms, 1455ms total)
T3F3C 104:626 JLINK_ReadReg(R9)  returns 0x20000160 (0000ms, 1455ms total)
T3F3C 104:626 JLINK_ReadReg(R10)  returns 0x080009EC (0000ms, 1455ms total)
T3F3C 104:626 JLINK_ReadReg(R11)  returns 0x080009FC (0000ms, 1455ms total)
T3F3C 104:626 JLINK_ReadReg(R12)  returns 0x00000000 (0000ms, 1455ms total)
T3F3C 104:626 JLINK_ReadReg(R13)  returns 0x20000278 (0000ms, 1455ms total)
T3F3C 104:626 JLINK_ReadReg(R14)  returns 0x08000103 (0000ms, 1455ms total)
T3F3C 104:626 JLINK_ReadReg(R15)  returns 0x0800011A (0000ms, 1455ms total)
T3F3C 104:626 JLINK_ReadReg(XPSR)  returns 0x41000000 (0000ms, 1455ms total)
T3F3C 104:626 JLINK_ReadReg(MSP)  returns 0x20000278 (0000ms, 1455ms total)
T3F3C 104:626 JLINK_ReadReg(PSP)  returns 0x20000800 (0000ms, 1455ms total)
T3F3C 104:627 JLINK_ReadReg(CFBP)  returns 0x00000000 (0000ms, 1456ms total)
T58F4 104:627 JLINK_ReadMemU32(0xE0001004, 0x0001 Items, ...) -- CPU_ReadMem(4 bytes @ 0xE0001004) -- Data:  01 00 00 40  returns 0x01 (0002ms, 1456ms total)
T58F4 104:634 JLINK_ReadMem (0x08000120, 0x003C Bytes, ...) -- CPU_ReadMem(128 bytes @ 0x08000100) -- Updating C cache (128 bytes @ 0x08000100) -- Read from C cache (60 bytes @ 0x08000120) -- Data:  BC 08 00 00 DC 08 00 00 10 3A 24 BF 78 C8 78 C1 ...  returns 0x00 (0002ms, 1458ms total)
T3F3C 104:881 JLINK_Step() -- Read from C cache (2 bytes @ 0x0800011A) -- Not simulated  returns 0x00 (0007ms, 1460ms total)
T3F3C 104:888 JLINK_ReadReg(R15)  returns 0x0800011E (0000ms, 1467ms total)
T3F3C 104:888 JLINK_ReadReg(XPSR)  returns 0x41000000 (0000ms, 1467ms total)
T3F3C 104:888 JLINK_ReadReg(R0)  returns 0x080009FC (0000ms, 1467ms total)
T3F3C 104:888 JLINK_ReadReg(R1)  returns 0x20000000 (0000ms, 1467ms total)
T3F3C 104:888 JLINK_ReadReg(R2)  returns 0x00000014 (0000ms, 1467ms total)
T3F3C 104:888 JLINK_ReadReg(R3)  returns 0x08000129 (0000ms, 1467ms total)
T3F3C 104:888 JLINK_ReadReg(R4)  returns 0x00000000 (0000ms, 1467ms total)
T3F3C 104:888 JLINK_ReadReg(R5)  returns 0x00000000 (0001ms, 1467ms total)
T3F3C 104:889 JLINK_ReadReg(R6)  returns 0x00000000 (0000ms, 1468ms total)
T3F3C 104:889 JLINK_ReadReg(R7)  returns 0x080009DB (0000ms, 1468ms total)
T3F3C 104:889 JLINK_ReadReg(R8)  returns 0x00000000 (0000ms, 1468ms total)
T3F3C 104:889 JLINK_ReadReg(R9)  returns 0x20000160 (0000ms, 1468ms total)
T3F3C 104:889 JLINK_ReadReg(R10)  returns 0x080009EC (0000ms, 1468ms total)
T3F3C 104:889 JLINK_ReadReg(R11)  returns 0x080009FC (0000ms, 1468ms total)
T3F3C 104:889 JLINK_ReadReg(R12)  returns 0x00000000 (0000ms, 1468ms total)
T3F3C 104:889 JLINK_ReadReg(R13)  returns 0x20000278 (0000ms, 1468ms total)
T3F3C 104:889 JLINK_ReadReg(R14)  returns 0x08000103 (0000ms, 1468ms total)
T3F3C 104:889 JLINK_ReadReg(R15)  returns 0x0800011E (0000ms, 1468ms total)
T3F3C 104:889 JLINK_ReadReg(XPSR)  returns 0x41000000 (0000ms, 1468ms total)
T3F3C 104:889 JLINK_ReadReg(MSP)  returns 0x20000278 (0000ms, 1468ms total)
T3F3C 104:889 JLINK_ReadReg(PSP)  returns 0x20000800 (0000ms, 1468ms total)
T3F3C 104:889 JLINK_ReadReg(CFBP)  returns 0x00000000 (0000ms, 1468ms total)
T58F4 104:889 JLINK_ReadMemU32(0xE0001004, 0x0001 Items, ...) -- CPU_ReadMem(4 bytes @ 0xE0001004) -- Data:  01 00 00 40  returns 0x01 (0001ms, 1468ms total)
T58F4 104:895 JLINK_ReadMem (0x08000122, 0x0002 Bytes, ...) -- CPU_ReadMem(64 bytes @ 0x08000100) -- Updating C cache (64 bytes @ 0x08000100) -- Read from C cache (2 bytes @ 0x08000122) -- Data:  00 00  returns 0x00 (0002ms, 1469ms total)
T58F4 104:897 JLINK_ReadMem (0x08000124, 0x003C Bytes, ...) -- CPU_ReadMem(64 bytes @ 0x08000140) -- Updating C cache (64 bytes @ 0x08000140) -- Read from C cache (60 bytes @ 0x08000124) -- Data:  DC 08 00 00 10 3A 24 BF 78 C8 78 C1 FA D8 52 07 ...  returns 0x00 (0002ms, 1471ms total)
T3F3C 105:345 JLINK_Step() -- Read from C cache (2 bytes @ 0x0800011E) -- Not simulated  returns 0x00 (0008ms, 1473ms total)
T3F3C 105:353 JLINK_ReadReg(R15)  returns 0x08000128 (0000ms, 1481ms total)
T3F3C 105:353 JLINK_ReadReg(XPSR)  returns 0x41000000 (0000ms, 1481ms total)
T3F3C 105:353 JLINK_ReadReg(R0)  returns 0x080009FC (0000ms, 1481ms total)
T3F3C 105:353 JLINK_ReadReg(R1)  returns 0x20000000 (0000ms, 1481ms total)
T3F3C 105:353 JLINK_ReadReg(R2)  returns 0x00000014 (0000ms, 1481ms total)
T3F3C 105:353 JLINK_ReadReg(R3)  returns 0x08000129 (0000ms, 1481ms total)
T3F3C 105:353 JLINK_ReadReg(R4)  returns 0x00000000 (0000ms, 1481ms total)
T3F3C 105:353 JLINK_ReadReg(R5)  returns 0x00000000 (0000ms, 1481ms total)
T3F3C 105:353 JLINK_ReadReg(R6)  returns 0x00000000 (0000ms, 1481ms total)
T3F3C 105:353 JLINK_ReadReg(R7)  returns 0x080009DB (0000ms, 1481ms total)
T3F3C 105:353 JLINK_ReadReg(R8)  returns 0x00000000 (0001ms, 1481ms total)
T3F3C 105:354 JLINK_ReadReg(R9)  returns 0x20000160 (0000ms, 1482ms total)
T3F3C 105:354 JLINK_ReadReg(R10)  returns 0x080009EC (0000ms, 1482ms total)
T3F3C 105:354 JLINK_ReadReg(R11)  returns 0x080009FC (0000ms, 1482ms total)
T3F3C 105:354 JLINK_ReadReg(R12)  returns 0x00000000 (0000ms, 1482ms total)
T3F3C 105:354 JLINK_ReadReg(R13)  returns 0x20000278 (0000ms, 1482ms total)
T3F3C 105:354 JLINK_ReadReg(R14)  returns 0x08000103 (0000ms, 1482ms total)
T3F3C 105:354 JLINK_ReadReg(R15)  returns 0x08000128 (0000ms, 1482ms total)
T3F3C 105:354 JLINK_ReadReg(XPSR)  returns 0x41000000 (0000ms, 1482ms total)
T3F3C 105:354 JLINK_ReadReg(MSP)  returns 0x20000278 (0000ms, 1482ms total)
T3F3C 105:354 JLINK_ReadReg(PSP)  returns 0x20000800 (0000ms, 1482ms total)
T3F3C 105:354 JLINK_ReadReg(CFBP)  returns 0x00000000 (0000ms, 1482ms total)
T58F4 105:354 JLINK_ReadMemU32(0xE0001004, 0x0001 Items, ...) -- CPU_ReadMem(4 bytes @ 0xE0001004) -- Data:  01 00 00 40  returns 0x01 (0001ms, 1482ms total)
T58F4 105:371 JLINK_ReadMem (0x08000128, 0x003C Bytes, ...) -- CPU_ReadMem(128 bytes @ 0x08000100) -- Updating C cache (128 bytes @ 0x08000100) -- Read from C cache (60 bytes @ 0x08000128) -- Data:  10 3A 24 BF 78 C8 78 C1 FA D8 52 07 24 BF 30 C8 ...  returns 0x00 (0002ms, 1483ms total)
T3F3C 105:584 JLINK_Step() -- Read from C cache (2 bytes @ 0x08000128) -- Not simulated  returns 0x00 (0009ms, 1485ms total)
T3F3C 105:593 JLINK_ReadReg(R15)  returns 0x0800012A (0000ms, 1494ms total)
T3F3C 105:593 JLINK_ReadReg(XPSR)  returns 0x21000000 (0000ms, 1494ms total)
T3F3C 105:593 JLINK_ReadReg(R0)  returns 0x080009FC (0000ms, 1494ms total)
T3F3C 105:593 JLINK_ReadReg(R1)  returns 0x20000000 (0000ms, 1494ms total)
T3F3C 105:593 JLINK_ReadReg(R2)  returns 0x00000004 (0000ms, 1494ms total)
T3F3C 105:593 JLINK_ReadReg(R3)  returns 0x08000129 (0000ms, 1494ms total)
T3F3C 105:593 JLINK_ReadReg(R4)  returns 0x00000000 (0000ms, 1494ms total)
